
T1588 000:047 SEGGER J-Link V4.68a Log File (0000ms, 0047ms total)
T1588 000:047 DLL Compiled: Apr 12 2013 13:26:50 (0000ms, 0047ms total)
T1588 000:047 Logging started @ 2013-08-31 16:37 (0000ms, 0047ms total)
T1588 000:047 JLINK_SetWarnOutHandler(...) (0000ms, 0047ms total)
T1588 000:047 JLINK_OpenEx(...)
Firmware: J-Link ARM V8 compiled Nov 14 2012 22:34:52
Hardware: V8.00
S/N: 168520
Feature(s): RDI,FlashDL,FlashBP,JFlash,GDBFull  returns O.K. (0026ms, 0073ms total)
T1588 000:073 JLINK_SetErrorOutHandler(...) (0000ms, 0073ms total)
T1588 000:073 JLINK_ExecCommand("ProjectFile = "C:\Users\David Wu\Documents\GitHub\Project-Voice\Test and Simulation\STM32F4xx Function Test\QCopterMachineVision Board\TEST_QCopterMV_USART\Project_QCMV_Test\JLinkSettings.ini"", ...)  returns 0x00 (0000ms, 0073ms total)
T1588 000:076 JLINK_ExecCommand("Device = STM32F407VG", ...)
                JLINK_AddMirrorAreaEx(Addr = 0x00000000, Size = 0x00000000) (0000ms, 0000ms total)
              Device "STM32F407VG" selected (1024 KB flash, 128 KB RAM).  returns 0x00 (0003ms, 0076ms total)
T1588 000:079 JLINK_ExecCommand("DisableConnectionTimeout", ...)  returns 0x00 (0000ms, 0076ms total)
T1588 000:079 JLINK_GetHardwareVersion()  returns 0x13880 (0000ms, 0076ms total)
T1588 000:079 JLINK_GetDLLVersion()  returns 46801 (0000ms, 0076ms total)
T1588 000:079 JLINK_GetFirmwareString(...) (0000ms, 0076ms total)
T1588 000:083 JLINK_GetDLLVersion()  returns 46801 (0000ms, 0076ms total)
T1588 000:083 JLINK_GetCompileDateTime() (0000ms, 0076ms total)
T1588 000:084 JLINK_GetFirmwareString(...) (0000ms, 0076ms total)
T1588 000:086 JLINK_GetHardwareVersion()  returns 0x13880 (0000ms, 0076ms total)
T1588 000:090 JLINK_TIF_Select(JLINKARM_TIF_SWD)  returns 0x00 (0006ms, 0082ms total)
T1588 000:096 JLINK_SetSpeed(2000) (0001ms, 0083ms total)
T1588 000:097 JLINK_GetId() >0x108 TIF>Found SWD-DP with ID 0x2BA01477 >0x0D TIF> >0x28 TIF> >0x0D TIF> >0x28 TIF> >0x0D TIF> >0x21 TIF> >0x0D TIF> >0x28 TIF> >0x0D TIF> >0x28 TIF> >0x0D TIF> >0x28 TIF> >0x0D TIF> >0x21 TIF> >0x0D TIF> >0x21 TIF> >0x0D TIF> >0x28 TIF> >0x0D TIF> >0x21 TIF> >0x0D TIF> >0x21 TIF> >0x0D TIF> >0x28 TIF> >0x0D TIF> >0x21 TIF> >0x0D TIF> >0x21 TIF> >0x108 TIF>Found SWD-DP with ID 0x2BA01477 >0x0D TIF> >0x21 TIF> >0x0D TIF> >0x28 TIF> >0x0D TIF> >0x28 TIF> >0x0D TIF> >0x21 TIF>
 >0x0D TIF> >0x21 TIF> >0x0D TIF> >0x28 TIF> >0x0D TIF> >0x21 TIF> >0x0D TIF> >0x21 TIF> >0x0D TIF> >0x21 TIF> >0x0D TIF> >0x21 TIF> >0x0D TIF> >0x21 TIF> >0x0D TIF> >0x28 TIF> >0x0D TIF> >0x28 TIF> >0x0D TIF> >0x21 TIF> >0x0D TIF> >0x21 TIF> >0x0D TIF> >0x28 TIF> >0x0D TIF> >0x21 TIF> >0x0D TIF> >0x21 TIF> >0x0D TIF> >0x28 TIF> >0x0D TIF> >0x28 TIF> >0x0D TIF> >0x28 TIF> >0x0D TIF> >0x21 TIF> >0x0D TIF> >0x21 TIF> >0x0D TIF> >0x28 TIF> >0x0D TIF> >0x28 TIF> >0x0D TIF> >0x28 TIF> >0x0D TIF> >0x21 TIF>
 >0x0D TIF> >0x21 TIF> >0x0D TIF> >0x21 TIF>TPIU fitted.ETM fitted. >0x0D TIF> >0x28 TIF> >0x0D TIF> >0x21 TIF> >0x0D TIF> >0x21 TIF> >0x0D TIF> >0x28 TIF> >0x0D TIF> >0x21 TIF> >0x0D TIF> >0x21 TIF>FPUnit: 6 code (BP) slots and 2 literal slots >0x0D TIF> >0x28 TIF> >0x0D TIF> >0x21 TIF> >0x0D TIF> >0x21 TIF> >0x0D TIF> >0x28 TIF> >0x0D TIF> >0x21 TIF> >0x0D TIF> >0x21 TIF> >0x0D TIF> >0x28 TIF> >0x0D TIF> >0x21 TIF> >0x0D TIF> >0x21 TIF> >0x0D TIF> >0x28 TIF> >0x0D TIF> >0x21 TIF> >0x0D TIF> >0x21 TIF>
Found Cortex-M4 r0p1, Little endian. >0x0D TIF> >0x21 TIF>  returns 0x2BA01477 (0139ms, 0222ms total)
T1588 000:236 JLINK_GetDeviceFamily()  returns 14 (0001ms, 0223ms total)
T1588 000:238 JLINK_ReadMem (0xE00FFFF0, 0x0010 Bytes, ...) -- CPU is running -- CPU_ReadMem(16 bytes @ 0xE00FFFF0) -- Data:  0D 00 00 00 10 00 00 00 05 00 00 00 B1 00 00 00  returns 0x00 (0001ms, 0224ms total)
T1588 000:239 JLINK_ReadMem (0xE00FFFD0, 0x0020 Bytes, ...) -- CPU is running -- CPU_ReadMem(32 bytes @ 0xE00FFFD0) -- Data:  00 00 00 00 00 00 00 00 00 00 00 00 00 00 00 00 ...  returns 0x00 (0001ms, 0225ms total)
T1588 000:240 JLINK_ReadMem (0xE00FF000, 0x0018 Bytes, ...) -- CPU is running -- CPU_ReadMem(24 bytes @ 0xE00FF000) -- Data:  03 F0 F0 FF 03 20 F0 FF 03 30 F0 FF 03 10 F0 FF ...  returns 0x00 (0001ms, 0226ms total)
T1588 000:241 JLINK_ReadMemU32(0xE000ED00, 0x0001 Items, ...) -- CPU is running -- CPU_ReadMem(4 bytes @ 0xE000ED00) -- Data:  41 C2 0F 41  returns 0x01 (0001ms, 0227ms total)
T1588 000:242 JLINK_ReadMemU32(0xE000EF40, 0x0001 Items, ...) -- CPU is running -- CPU_ReadMem(4 bytes @ 0xE000EF40) -- Data:  21 00 11 10  returns 0x01 (0001ms, 0228ms total)
T1588 000:243 JLINK_ReadMemU32(0xE000EF44, 0x0001 Items, ...) -- CPU is running -- CPU_ReadMem(4 bytes @ 0xE000EF44) -- Data:  11 00 00 11  returns 0x01 (0001ms, 0229ms total)
T1588 000:244 JLINK_SetResetType(JLINKARM_RESET_TYPE_NORMAL)  returns JLINKARM_RESET_TYPE_NORMAL (0000ms, 0229ms total)
T1588 000:244 JLINK_Reset() -- CPU is running -- CPU_WriteMem(4 bytes @ 0xE000EDF0) -- CPU is running -- CPU_WriteMem(4 bytes @ 0xE000EDFC) >0x35 TIF> -- CPU is running -- CPU_WriteMem(4 bytes @ 0xE000ED0C) -- CPU is running -- CPU_ReadMem(4 bytes @ 0xE000EDF0) -- CPU is running -- CPU_ReadMem(4 bytes @ 0xE000EDF0) -- CPU is running -- CPU_WriteMem(4 bytes @ 0xE000EDF0) -- CPU is running -- CPU_WriteMem(4 bytes @ 0xE000EDFC) -- CPU is running -- CPU_ReadMem(4 bytes @ 0xE000EDF0)
 -- CPU_WriteMem(4 bytes @ 0xE0002000) (0023ms, 0252ms total)
T1588 000:267 JLINK_Halt()  returns 0x00 (0000ms, 0252ms total)
T1588 000:267 JLINK_IsHalted()  returns TRUE (0000ms, 0252ms total)
T1588 000:267 JLINK_ReadMemU32(0xE000EDF0, 0x0001 Items, ...) -- CPU_ReadMem(4 bytes @ 0xE000EDF0) -- Data:  03 00 03 00  returns 0x01 (0001ms, 0253ms total)
T1588 000:268 JLINK_WriteU32(0xE000EDF0, 0xA05F0003) -- CPU_WriteMem(4 bytes @ 0xE000EDF0)  returns 0x00 (0001ms, 0254ms total)
T1588 000:269 JLINK_WriteU32(0xE000EDFC, 0x01000000) -- CPU_WriteMem(4 bytes @ 0xE000EDFC)  returns 0x00 (0001ms, 0255ms total)
T1588 000:275 JLINK_GetHWStatus(...)  returns 0x00 (0001ms, 0256ms total)
T1588 000:280 JLINK_GetNumBPUnits(Type = 0xFFFFFF00)  returns 0x06 (0000ms, 0256ms total)
T1588 000:280 JLINK_GetNumBPUnits(Type = 0xF0)  returns 0x2000 (0000ms, 0256ms total)
T1588 000:280 JLINK_GetNumWPUnits()  returns 0x04 (0000ms, 0256ms total)
T1588 000:284 JLINK_GetSpeed()  returns 0x7D0 (0001ms, 0257ms total)
T1588 000:287 JLINK_ReadMemU32(0xE000E004, 0x0001 Items, ...) -- CPU_ReadMem(4 bytes @ 0xE000E004) -- Data:  02 00 00 00  returns 0x01 (0001ms, 0258ms total)
T1588 000:288 JLINK_ReadMemU32(0xE000E004, 0x0001 Items, ...) -- CPU_ReadMem(4 bytes @ 0xE000E004) -- Data:  02 00 00 00  returns 0x01 (0001ms, 0259ms total)
T1588 000:289 JLINK_WriteMem(0xE0001000, 0x001C Bytes, ...) -- Data:  01 00 00 00 00 00 00 00 00 00 00 00 00 00 00 00 ... -- CPU_WriteMem(28 bytes @ 0xE0001000)  returns 0x1C (0001ms, 0260ms total)
T1588 000:290 JLINK_ReadMem (0xE0001000, 0x001C Bytes, ...) -- CPU_ReadMem(28 bytes @ 0xE0001000) -- Data:  01 00 00 40 00 00 00 00 00 00 00 00 00 00 00 00 ...  returns 0x00 (0001ms, 0261ms total)
T1588 000:291 JLINK_Halt()  returns 0x00 (0000ms, 0261ms total)
T1588 000:291 JLINK_IsHalted()  returns TRUE (0000ms, 0261ms total)
T1588 000:293 JLINK_WriteMem(0x20000000, 0x0180 Bytes, ...) -- Data:  00 BE 0A E0 0D 78 2D 06 68 40 08 24 40 00 00 D3 ... -- CPU_WriteMem(384 bytes @ 0x20000000)  returns 0x180 (0005ms, 0266ms total)
T1588 000:298 JLINK_WriteReg(R0, 0x08000000)  returns 0x00 (0000ms, 0266ms total)
T1588 000:298 JLINK_WriteReg(R1, 0x007A1200)  returns 0x00 (0000ms, 0266ms total)
T1588 000:298 JLINK_WriteReg(R2, 0x00000001)  returns 0x00 (0000ms, 0266ms total)
T1588 000:298 JLINK_WriteReg(R3, 0x00000000)  returns 0x00 (0000ms, 0266ms total)
T1588 000:298 JLINK_WriteReg(R4, 0x00000000)  returns 0x00 (0000ms, 0266ms total)
T1588 000:298 JLINK_WriteReg(R5, 0x00000000)  returns 0x00 (0000ms, 0266ms total)
T1588 000:298 JLINK_WriteReg(R6, 0x00000000)  returns 0x00 (0000ms, 0266ms total)
T1588 000:298 JLINK_WriteReg(R7, 0x00000000)  returns 0x00 (0000ms, 0266ms total)
T1588 000:298 JLINK_WriteReg(R8, 0x00000000)  returns 0x00 (0000ms, 0266ms total)
T1588 000:298 JLINK_WriteReg(R9, 0x2000017C)  returns 0x00 (0000ms, 0266ms total)
T1588 000:298 JLINK_WriteReg(R10, 0x00000000)  returns 0x00 (0000ms, 0266ms total)
T1588 000:298 JLINK_WriteReg(R11, 0x00000000)  returns 0x00 (0000ms, 0266ms total)
T1588 000:298 JLINK_WriteReg(R12, 0x00000000)  returns 0x00 (0000ms, 0266ms total)
T1588 000:298 JLINK_WriteReg(R13, 0x20000800)  returns 0x00 (0000ms, 0266ms total)
T1588 000:298 JLINK_WriteReg(R14, 0x20000001)  returns 0x00 (0000ms, 0266ms total)
T1588 000:298 JLINK_WriteReg(R15, 0x20000054)  returns 0x00 (0000ms, 0266ms total)
T1588 000:298 JLINK_WriteReg(XPSR, 0x01000000)  returns 0x00 (0000ms, 0266ms total)
T1588 000:298 JLINK_WriteReg(MSP, 0x20000800)  returns 0x00 (0000ms, 0266ms total)
T1588 000:298 JLINK_WriteReg(PSP, 0x20000800)  returns 0x00 (0000ms, 0266ms total)
T1588 000:298 JLINK_WriteReg(CFBP, 0x00000000)  returns 0x00 (0000ms, 0266ms total)
T1588 000:298 JLINK_SetBPEx(Addr = 0x20000000, Type = 0xFFFFFFF2) -- CPU_ReadMem(2 bytes @ 0x20000000)  returns 0x00000001 (0001ms, 0267ms total)
T1588 000:299 JLINK_Go() -- CPU_WriteMem(2 bytes @ 0x20000000) -- CPU_WriteMem(4 bytes @ 0xE0002008) -- CPU_WriteMem(4 bytes @ 0xE000200C) -- CPU_WriteMem(4 bytes @ 0xE0002010) -- CPU_WriteMem(4 bytes @ 0xE0002014) -- CPU_WriteMem(4 bytes @ 0xE0002018) -- CPU_WriteMem(4 bytes @ 0xE000201C) (0010ms, 0277ms total)
T1588 000:309 JLINK_IsHalted() -- CPU_ReadMem(2 bytes @ 0x20000000)  returns TRUE (0005ms, 0282ms total)
T1588 000:314 JLINK_ReadReg(R15)  returns 0x20000000 (0000ms, 0277ms total)
T1588 000:314 JLINK_ClrBPEx(BPHandle = 0x00000001)  returns 0x00 (0000ms, 0277ms total)
T1588 000:314 JLINK_ReadReg(R0)  returns 0x00000000 (0000ms, 0277ms total)
T1588 000:314 JLINK_WriteReg(R0, 0x08000000)  returns 0x00 (0000ms, 0277ms total)
T1588 000:314 JLINK_WriteReg(R1, 0x00004000)  returns 0x00 (0000ms, 0277ms total)
T1588 000:314 JLINK_WriteReg(R2, 0x000000FF)  returns 0x00 (0000ms, 0277ms total)
T1588 000:314 JLINK_WriteReg(R3, 0x00000000)  returns 0x00 (0000ms, 0277ms total)
T1588 000:314 JLINK_WriteReg(R4, 0x00000000)  returns 0x00 (0000ms, 0277ms total)
T1588 000:314 JLINK_WriteReg(R5, 0x00000000)  returns 0x00 (0000ms, 0277ms total)
T1588 000:314 JLINK_WriteReg(R6, 0x00000000)  returns 0x00 (0000ms, 0277ms total)
T1588 000:314 JLINK_WriteReg(R7, 0x00000000)  returns 0x00 (0000ms, 0277ms total)
T1588 000:314 JLINK_WriteReg(R8, 0x00000000)  returns 0x00 (0000ms, 0277ms total)
T1588 000:314 JLINK_WriteReg(R9, 0x2000017C)  returns 0x00 (0000ms, 0277ms total)
T1588 000:314 JLINK_WriteReg(R10, 0x00000000)  returns 0x00 (0000ms, 0277ms total)
T1588 000:314 JLINK_WriteReg(R11, 0x00000000)  returns 0x00 (0000ms, 0277ms total)
T1588 000:314 JLINK_WriteReg(R12, 0x00000000)  returns 0x00 (0000ms, 0277ms total)
T1588 000:314 JLINK_WriteReg(R13, 0x20000800)  returns 0x00 (0001ms, 0278ms total)
T1588 000:315 JLINK_WriteReg(R14, 0x20000001)  returns 0x00 (0000ms, 0278ms total)
T1588 000:315 JLINK_WriteReg(R15, 0x20000020)  returns 0x00 (0000ms, 0278ms total)
T1588 000:315 JLINK_WriteReg(XPSR, 0x01000000)  returns 0x00 (0000ms, 0278ms total)
T1588 000:315 JLINK_WriteReg(MSP, 0x20000800)  returns 0x00 (0000ms, 0278ms total)
T1588 000:315 JLINK_WriteReg(PSP, 0x20000800)  returns 0x00 (0000ms, 0278ms total)
T1588 000:315 JLINK_WriteReg(CFBP, 0x00000000)  returns 0x00 (0000ms, 0278ms total)
T1588 000:315 JLINK_SetBPEx(Addr = 0x20000000, Type = 0xFFFFFFF2)  returns 0x00000002 (0000ms, 0278ms total)
T1588 000:315 JLINK_Go() (0002ms, 0280ms total)
T1588 000:317 JLINK_IsHalted() -- CPU_ReadMem(2 bytes @ 0x20000000)  returns TRUE (0005ms, 0285ms total)
T1588 000:322 JLINK_ReadReg(R15)  returns 0x20000000 (0000ms, 0280ms total)
T1588 000:322 JLINK_ClrBPEx(BPHandle = 0x00000002)  returns 0x00 (0000ms, 0280ms total)
T1588 000:322 JLINK_ReadReg(R0)  returns 0x00000001 (0000ms, 0280ms total)
T1588 000:322 JLINK_WriteReg(R0, 0x08000000)  returns 0x00 (0000ms, 0280ms total)
T1588 000:322 JLINK_WriteReg(R1, 0x00004000)  returns 0x00 (0000ms, 0280ms total)
T1588 000:322 JLINK_WriteReg(R2, 0x000000FF)  returns 0x00 (0000ms, 0280ms total)
T1588 000:322 JLINK_WriteReg(R3, 0x00000000)  returns 0x00 (0000ms, 0280ms total)
T1588 000:322 JLINK_WriteReg(R4, 0x00000000)  returns 0x00 (0000ms, 0280ms total)
T1588 000:322 JLINK_WriteReg(R5, 0x00000000)  returns 0x00 (0000ms, 0280ms total)
T1588 000:322 JLINK_WriteReg(R6, 0x00000000)  returns 0x00 (0000ms, 0280ms total)
T1588 000:322 JLINK_WriteReg(R7, 0x00000000)  returns 0x00 (0000ms, 0280ms total)
T1588 000:322 JLINK_WriteReg(R8, 0x00000000)  returns 0x00 (0000ms, 0280ms total)
T1588 000:322 JLINK_WriteReg(R9, 0x2000017C)  returns 0x00 (0000ms, 0280ms total)
T1588 000:322 JLINK_WriteReg(R10, 0x00000000)  returns 0x00 (0000ms, 0280ms total)
T1588 000:322 JLINK_WriteReg(R11, 0x00000000)  returns 0x00 (0000ms, 0280ms total)
T1588 000:322 JLINK_WriteReg(R12, 0x00000000)  returns 0x00 (0000ms, 0280ms total)
T1588 000:322 JLINK_WriteReg(R13, 0x20000800)  returns 0x00 (0000ms, 0280ms total)
T1588 000:322 JLINK_WriteReg(R14, 0x20000001)  returns 0x00 (0000ms, 0280ms total)
T1588 000:322 JLINK_WriteReg(R15, 0x200000BC)  returns 0x00 (0000ms, 0280ms total)
T1588 000:322 JLINK_WriteReg(XPSR, 0x01000000)  returns 0x00 (0000ms, 0280ms total)
T1588 000:322 JLINK_WriteReg(MSP, 0x20000800)  returns 0x00 (0000ms, 0280ms total)
T1588 000:322 JLINK_WriteReg(PSP, 0x20000800)  returns 0x00 (0001ms, 0281ms total)
T1588 000:323 JLINK_WriteReg(CFBP, 0x00000000)  returns 0x00 (0000ms, 0281ms total)
T1588 000:323 JLINK_SetBPEx(Addr = 0x20000000, Type = 0xFFFFFFF2)  returns 0x00000003 (0000ms, 0281ms total)
T1588 000:323 JLINK_Go() (0002ms, 0283ms total)
T1588 000:325 JLINK_IsHalted()  returns FALSE (0001ms, 0284ms total)
T1588 000:350 JLINK_IsHalted()  returns FALSE (0001ms, 0284ms total)
T1588 000:355 JLINK_IsHalted()  returns FALSE (0001ms, 0284ms total)
T1588 000:357 JLINK_IsHalted()  returns FALSE (0001ms, 0284ms total)
T1588 000:359 JLINK_IsHalted()  returns FALSE (0001ms, 0284ms total)
T1588 000:362 JLINK_IsHalted()  returns FALSE (0001ms, 0284ms total)
T1588 000:364 JLINK_IsHalted()  returns FALSE (0001ms, 0284ms total)
T1588 000:366 JLINK_IsHalted()  returns FALSE (0001ms, 0284ms total)
T1588 000:368 JLINK_IsHalted()  returns FALSE (0001ms, 0284ms total)
T1588 000:371 JLINK_IsHalted()  returns FALSE (0001ms, 0284ms total)
T1588 000:373 JLINK_IsHalted()  returns FALSE (0001ms, 0284ms total)
T1588 000:375 JLINK_IsHalted()  returns FALSE (0001ms, 0284ms total)
T1588 000:378 JLINK_IsHalted()  returns FALSE (0001ms, 0284ms total)
T1588 000:380 JLINK_IsHalted()  returns FALSE (0001ms, 0284ms total)
T1588 000:382 JLINK_IsHalted()  returns FALSE (0001ms, 0284ms total)
T1588 000:384 JLINK_IsHalted()  returns FALSE (0001ms, 0284ms total)
T1588 000:387 JLINK_IsHalted()  returns FALSE (0001ms, 0284ms total)
T1588 000:389 JLINK_IsHalted()  returns FALSE (0001ms, 0284ms total)
T1588 000:391 JLINK_IsHalted()  returns FALSE (0001ms, 0284ms total)
T1588 000:394 JLINK_IsHalted()  returns FALSE (0001ms, 0284ms total)
T1588 000:396 JLINK_IsHalted()  returns FALSE (0001ms, 0284ms total)
T1588 000:398 JLINK_IsHalted()  returns FALSE (0001ms, 0284ms total)
T1588 000:402 JLINK_IsHalted()  returns FALSE (0001ms, 0284ms total)
T1588 000:404 JLINK_IsHalted()  returns FALSE (0001ms, 0284ms total)
T1588 000:406 JLINK_IsHalted()  returns FALSE (0001ms, 0284ms total)
T1588 000:410 JLINK_IsHalted()  returns FALSE (0001ms, 0284ms total)
T1588 000:412 JLINK_IsHalted()  returns FALSE (0001ms, 0284ms total)
T1588 000:414 JLINK_IsHalted()  returns FALSE (0001ms, 0284ms total)
T1588 000:416 JLINK_IsHalted()  returns FALSE (0001ms, 0284ms total)
T1588 000:419 JLINK_IsHalted()  returns FALSE (0001ms, 0284ms total)
T1588 000:421 JLINK_IsHalted()  returns FALSE (0001ms, 0284ms total)
T1588 000:423 JLINK_IsHalted()  returns FALSE (0001ms, 0284ms total)
T1588 000:427 JLINK_IsHalted()  returns FALSE (0001ms, 0284ms total)
T1588 000:429 JLINK_IsHalted()  returns FALSE (0001ms, 0284ms total)
T1588 000:431 JLINK_IsHalted()  returns FALSE (0001ms, 0284ms total)
T1588 000:434 JLINK_IsHalted()  returns FALSE (0001ms, 0284ms total)
T1588 000:436 JLINK_IsHalted()  returns FALSE (0001ms, 0284ms total)
T1588 000:438 JLINK_IsHalted()  returns FALSE (0001ms, 0284ms total)
T1588 000:440 JLINK_IsHalted()  returns FALSE (0001ms, 0284ms total)
T1588 000:444 JLINK_IsHalted()  returns FALSE (0001ms, 0284ms total)
T1588 000:446 JLINK_IsHalted()  returns FALSE (0001ms, 0284ms total)
T1588 000:448 JLINK_IsHalted()  returns FALSE (0001ms, 0284ms total)
T1588 000:451 JLINK_IsHalted()  returns FALSE (0001ms, 0284ms total)
T1588 000:453 JLINK_IsHalted()  returns FALSE (0001ms, 0284ms total)
T1588 000:455 JLINK_IsHalted()  returns FALSE (0001ms, 0284ms total)
T1588 000:460 JLINK_IsHalted()  returns FALSE (0001ms, 0284ms total)
T1588 000:462 JLINK_IsHalted()  returns FALSE (0001ms, 0284ms total)
T1588 000:464 JLINK_IsHalted()  returns FALSE (0001ms, 0284ms total)
T1588 000:467 JLINK_IsHalted()  returns FALSE (0001ms, 0284ms total)
T1588 000:469 JLINK_IsHalted()  returns FALSE (0001ms, 0284ms total)
T1588 000:471 JLINK_IsHalted()  returns FALSE (0001ms, 0284ms total)
T1588 000:474 JLINK_IsHalted()  returns FALSE (0001ms, 0284ms total)
T1588 000:476 JLINK_IsHalted()  returns FALSE (0001ms, 0284ms total)
T1588 000:478 JLINK_IsHalted()  returns FALSE (0001ms, 0284ms total)
T1588 000:480 JLINK_IsHalted()  returns FALSE (0001ms, 0284ms total)
T1588 000:483 JLINK_IsHalted()  returns FALSE (0001ms, 0284ms total)
T1588 000:485 JLINK_IsHalted()  returns FALSE (0001ms, 0284ms total)
T1588 000:487 JLINK_IsHalted()  returns FALSE (0001ms, 0284ms total)
T1588 000:490 JLINK_IsHalted()  returns FALSE (0001ms, 0284ms total)
T1588 000:492 JLINK_IsHalted()  returns FALSE (0001ms, 0284ms total)
T1588 000:494 JLINK_IsHalted()  returns FALSE (0001ms, 0284ms total)
T1588 000:496 JLINK_IsHalted()  returns FALSE (0001ms, 0284ms total)
T1588 000:499 JLINK_IsHalted()  returns FALSE (0001ms, 0284ms total)
T1588 000:501 JLINK_IsHalted()  returns FALSE (0001ms, 0284ms total)
T1588 000:503 JLINK_IsHalted()  returns FALSE (0001ms, 0284ms total)
T1588 000:507 JLINK_IsHalted()  returns FALSE (0001ms, 0284ms total)
T1588 000:509 JLINK_IsHalted()  returns FALSE (0001ms, 0284ms total)
T1588 000:511 JLINK_IsHalted()  returns FALSE (0001ms, 0284ms total)
T1588 000:514 JLINK_IsHalted()  returns FALSE (0001ms, 0284ms total)
T1588 000:516 JLINK_IsHalted()  returns FALSE (0001ms, 0284ms total)
T1588 000:518 JLINK_IsHalted()  returns FALSE (0001ms, 0284ms total)
T1588 000:520 JLINK_IsHalted()  returns FALSE (0001ms, 0284ms total)
T1588 000:523 JLINK_IsHalted()  returns FALSE (0001ms, 0284ms total)
T1588 000:525 JLINK_IsHalted()  returns FALSE (0001ms, 0284ms total)
T1588 000:527 JLINK_IsHalted()  returns FALSE (0001ms, 0284ms total)
T1588 000:530 JLINK_IsHalted()  returns FALSE (0001ms, 0284ms total)
T1588 000:532 JLINK_IsHalted()  returns FALSE (0001ms, 0284ms total)
T1588 000:536 JLINK_IsHalted()  returns FALSE (0001ms, 0284ms total)
T1588 000:539 JLINK_IsHalted()  returns FALSE (0001ms, 0284ms total)
T1588 000:541 JLINK_IsHalted()  returns FALSE (0001ms, 0284ms total)
T1588 000:543 JLINK_IsHalted()  returns FALSE (0001ms, 0284ms total)
T1588 000:546 JLINK_IsHalted()  returns FALSE (0001ms, 0284ms total)
T1588 000:548 JLINK_IsHalted()  returns FALSE (0001ms, 0284ms total)
T1588 000:550 JLINK_IsHalted()  returns FALSE (0001ms, 0284ms total)
T1588 000:552 JLINK_IsHalted()  returns FALSE (0001ms, 0284ms total)
T1588 000:555 JLINK_IsHalted()  returns FALSE (0001ms, 0284ms total)
T1588 000:557 JLINK_IsHalted()  returns FALSE (0001ms, 0284ms total)
T1588 000:559 JLINK_IsHalted()  returns FALSE (0001ms, 0284ms total)
T1588 000:562 JLINK_IsHalted()  returns FALSE (0001ms, 0284ms total)
T1588 000:567 JLINK_IsHalted()  returns FALSE (0001ms, 0284ms total)
T1588 000:570 JLINK_IsHalted()  returns FALSE (0001ms, 0284ms total)
T1588 000:572 JLINK_IsHalted()  returns FALSE (0001ms, 0284ms total)
T1588 000:574 JLINK_IsHalted()  returns FALSE (0001ms, 0284ms total)
T1588 000:576 JLINK_IsHalted()  returns FALSE (0001ms, 0284ms total)
T1588 000:579 JLINK_IsHalted()  returns FALSE (0001ms, 0284ms total)
T1588 000:581 JLINK_IsHalted()  returns FALSE (0001ms, 0284ms total)
T1588 000:583 JLINK_IsHalted()  returns FALSE (0001ms, 0284ms total)
T1588 000:586 JLINK_IsHalted()  returns FALSE (0001ms, 0284ms total)
T1588 000:588 JLINK_IsHalted()  returns FALSE (0001ms, 0284ms total)
T1588 000:590 JLINK_IsHalted()  returns FALSE (0001ms, 0284ms total)
T1588 000:592 JLINK_IsHalted()  returns FALSE (0001ms, 0284ms total)
T1588 000:595 JLINK_IsHalted()  returns FALSE (0001ms, 0284ms total)
T1588 000:597 JLINK_IsHalted()  returns FALSE (0001ms, 0284ms total)
T1588 000:599 JLINK_IsHalted()  returns FALSE (0001ms, 0284ms total)
T1588 000:602 JLINK_IsHalted()  returns FALSE (0001ms, 0284ms total)
T1588 000:604 JLINK_IsHalted()  returns FALSE (0001ms, 0284ms total)
T1588 000:606 JLINK_IsHalted()  returns FALSE (0001ms, 0284ms total)
T1588 000:608 JLINK_IsHalted()  returns FALSE (0001ms, 0284ms total)
T1588 000:611 JLINK_IsHalted()  returns FALSE (0001ms, 0284ms total)
T1588 000:614 JLINK_IsHalted()  returns FALSE (0001ms, 0284ms total)
T1588 000:616 JLINK_IsHalted()  returns FALSE (0001ms, 0284ms total)
T1588 000:619 JLINK_IsHalted()  returns FALSE (0001ms, 0284ms total)
T1588 000:621 JLINK_IsHalted()  returns FALSE (0001ms, 0284ms total)
T1588 000:623 JLINK_IsHalted()  returns FALSE (0001ms, 0284ms total)
T1588 000:626 JLINK_IsHalted()  returns FALSE (0001ms, 0284ms total)
T1588 000:629 JLINK_IsHalted()  returns FALSE (0001ms, 0284ms total)
T1588 000:631 JLINK_IsHalted()  returns FALSE (0001ms, 0284ms total)
T1588 000:634 JLINK_IsHalted()  returns FALSE (0001ms, 0284ms total)
T1588 000:636 JLINK_IsHalted()  returns FALSE (0001ms, 0284ms total)
T1588 000:638 JLINK_IsHalted()  returns FALSE (0001ms, 0284ms total)
T1588 000:640 JLINK_IsHalted()  returns FALSE (0001ms, 0284ms total)
T1588 000:645 JLINK_IsHalted()  returns FALSE (0001ms, 0284ms total)
T1588 000:647 JLINK_IsHalted()  returns FALSE (0001ms, 0284ms total)
T1588 000:650 JLINK_IsHalted()  returns FALSE (0001ms, 0284ms total)
T1588 000:652 JLINK_IsHalted()  returns FALSE (0001ms, 0284ms total)
T1588 000:654 JLINK_IsHalted()  returns FALSE (0001ms, 0284ms total)
T1588 000:656 JLINK_IsHalted()  returns FALSE (0001ms, 0284ms total)
T1588 000:659 JLINK_IsHalted()  returns FALSE (0001ms, 0284ms total)
T1588 000:661 JLINK_IsHalted()  returns FALSE (0001ms, 0284ms total)
T1588 000:663 JLINK_IsHalted()  returns FALSE (0001ms, 0284ms total)
T1588 000:666 JLINK_IsHalted()  returns FALSE (0001ms, 0284ms total)
T1588 000:668 JLINK_IsHalted()  returns FALSE (0001ms, 0284ms total)
T1588 000:670 JLINK_IsHalted()  returns FALSE (0001ms, 0284ms total)
T1588 000:672 JLINK_IsHalted()  returns FALSE (0001ms, 0284ms total)
T1588 000:679 JLINK_IsHalted()  returns FALSE (0001ms, 0284ms total)
T1588 000:682 JLINK_IsHalted()  returns FALSE (0001ms, 0284ms total)
T1588 000:684 JLINK_IsHalted()  returns FALSE (0001ms, 0284ms total)
T1588 000:686 JLINK_IsHalted()  returns FALSE (0001ms, 0284ms total)
T1588 000:688 JLINK_IsHalted()  returns FALSE (0001ms, 0284ms total)
T1588 000:691 JLINK_IsHalted()  returns FALSE (0001ms, 0284ms total)
T1588 000:693 JLINK_IsHalted()  returns FALSE (0001ms, 0284ms total)
T1588 000:695 JLINK_IsHalted()  returns FALSE (0001ms, 0284ms total)
T1588 000:698 JLINK_IsHalted()  returns FALSE (0001ms, 0284ms total)
T1588 000:700 JLINK_IsHalted()  returns FALSE (0001ms, 0284ms total)
T1588 000:702 JLINK_IsHalted()  returns FALSE (0001ms, 0284ms total)
T1588 000:704 JLINK_IsHalted() -- CPU_ReadMem(2 bytes @ 0x20000000)  returns TRUE (0005ms, 0288ms total)
T1588 000:709 JLINK_ReadReg(R15)  returns 0x20000000 (0000ms, 0283ms total)
T1588 000:709 JLINK_ClrBPEx(BPHandle = 0x00000003)  returns 0x00 (0000ms, 0283ms total)
T1588 000:709 JLINK_ReadReg(R0)  returns 0x00000000 (0000ms, 0283ms total)
T1588 000:709 JLINK_WriteReg(R0, 0x00000001)  returns 0x00 (0000ms, 0283ms total)
T1588 000:709 JLINK_WriteReg(R1, 0x00004000)  returns 0x00 (0000ms, 0283ms total)
T1588 000:709 JLINK_WriteReg(R2, 0x000000FF)  returns 0x00 (0000ms, 0283ms total)
T1588 000:709 JLINK_WriteReg(R3, 0x00000000)  returns 0x00 (0000ms, 0283ms total)
T1588 000:709 JLINK_WriteReg(R4, 0x00000000)  returns 0x00 (0000ms, 0283ms total)
T1588 000:709 JLINK_WriteReg(R5, 0x00000000)  returns 0x00 (0000ms, 0283ms total)
T1588 000:709 JLINK_WriteReg(R6, 0x00000000)  returns 0x00 (0000ms, 0283ms total)
T1588 000:709 JLINK_WriteReg(R7, 0x00000000)  returns 0x00 (0000ms, 0283ms total)
T1588 000:709 JLINK_WriteReg(R8, 0x00000000)  returns 0x00 (0000ms, 0283ms total)
T1588 000:709 JLINK_WriteReg(R9, 0x2000017C)  returns 0x00 (0000ms, 0283ms total)
T1588 000:709 JLINK_WriteReg(R10, 0x00000000)  returns 0x00 (0000ms, 0283ms total)
T1588 000:709 JLINK_WriteReg(R11, 0x00000000)  returns 0x00 (0001ms, 0284ms total)
T1588 000:710 JLINK_WriteReg(R12, 0x00000000)  returns 0x00 (0000ms, 0284ms total)
T1588 000:710 JLINK_WriteReg(R13, 0x20000800)  returns 0x00 (0000ms, 0284ms total)
T1588 000:710 JLINK_WriteReg(R14, 0x20000001)  returns 0x00 (0000ms, 0284ms total)
T1588 000:710 JLINK_WriteReg(R15, 0x20000082)  returns 0x00 (0000ms, 0284ms total)
T1588 000:710 JLINK_WriteReg(XPSR, 0x01000000)  returns 0x00 (0000ms, 0284ms total)
T1588 000:710 JLINK_WriteReg(MSP, 0x20000800)  returns 0x00 (0000ms, 0284ms total)
T1588 000:710 JLINK_WriteReg(PSP, 0x20000800)  returns 0x00 (0000ms, 0284ms total)
T1588 000:710 JLINK_WriteReg(CFBP, 0x00000000)  returns 0x00 (0000ms, 0284ms total)
T1588 000:710 JLINK_SetBPEx(Addr = 0x20000000, Type = 0xFFFFFFF2)  returns 0x00000004 (0000ms, 0284ms total)
T1588 000:710 JLINK_Go() (0002ms, 0286ms total)
T1588 000:712 JLINK_IsHalted() -- CPU_ReadMem(2 bytes @ 0x20000000)  returns TRUE (0005ms, 0291ms total)
T1588 000:717 JLINK_ReadReg(R15)  returns 0x20000000 (0000ms, 0286ms total)
T1588 000:717 JLINK_ClrBPEx(BPHandle = 0x00000004)  returns 0x00 (0000ms, 0286ms total)
T1588 000:717 JLINK_ReadReg(R0)  returns 0x00000000 (0000ms, 0286ms total)
T1588 000:770 JLINK_WriteMem(0x20000000, 0x0180 Bytes, ...) -- Data:  00 BE 0A E0 0D 78 2D 06 68 40 08 24 40 00 00 D3 ... -- CPU_WriteMem(384 bytes @ 0x20000000)  returns 0x180 (0005ms, 0291ms total)
T1588 000:775 JLINK_WriteReg(R0, 0x08000000)  returns 0x00 (0000ms, 0291ms total)
T1588 000:775 JLINK_WriteReg(R1, 0x007A1200)  returns 0x00 (0000ms, 0291ms total)
T1588 000:775 JLINK_WriteReg(R2, 0x00000002)  returns 0x00 (0000ms, 0291ms total)
T1588 000:775 JLINK_WriteReg(R3, 0x00000000)  returns 0x00 (0000ms, 0291ms total)
T1588 000:775 JLINK_WriteReg(R4, 0x00000000)  returns 0x00 (0000ms, 0291ms total)
T1588 000:775 JLINK_WriteReg(R5, 0x00000000)  returns 0x00 (0000ms, 0291ms total)
T1588 000:775 JLINK_WriteReg(R6, 0x00000000)  returns 0x00 (0000ms, 0291ms total)
T1588 000:775 JLINK_WriteReg(R7, 0x00000000)  returns 0x00 (0000ms, 0291ms total)
T1588 000:775 JLINK_WriteReg(R8, 0x00000000)  returns 0x00 (0000ms, 0291ms total)
T1588 000:775 JLINK_WriteReg(R9, 0x2000017C)  returns 0x00 (0000ms, 0291ms total)
T1588 000:775 JLINK_WriteReg(R10, 0x00000000)  returns 0x00 (0000ms, 0291ms total)
T1588 000:775 JLINK_WriteReg(R11, 0x00000000)  returns 0x00 (0000ms, 0291ms total)
T1588 000:775 JLINK_WriteReg(R12, 0x00000000)  returns 0x00 (0000ms, 0291ms total)
T1588 000:775 JLINK_WriteReg(R13, 0x20000800)  returns 0x00 (0000ms, 0291ms total)
T1588 000:775 JLINK_WriteReg(R14, 0x20000001)  returns 0x00 (0000ms, 0291ms total)
T1588 000:775 JLINK_WriteReg(R15, 0x20000054)  returns 0x00 (0000ms, 0291ms total)
T1588 000:775 JLINK_WriteReg(XPSR, 0x01000000)  returns 0x00 (0000ms, 0291ms total)
T1588 000:775 JLINK_WriteReg(MSP, 0x20000800)  returns 0x00 (0000ms, 0291ms total)
T1588 000:775 JLINK_WriteReg(PSP, 0x20000800)  returns 0x00 (0000ms, 0291ms total)
T1588 000:775 JLINK_WriteReg(CFBP, 0x00000000)  returns 0x00 (0000ms, 0291ms total)
T1588 000:775 JLINK_SetBPEx(Addr = 0x20000000, Type = 0xFFFFFFF2) -- CPU_ReadMem(2 bytes @ 0x20000000)  returns 0x00000005 (0002ms, 0293ms total)
T1588 000:777 JLINK_Go() -- CPU_WriteMem(2 bytes @ 0x20000000) (0004ms, 0297ms total)
T1588 000:781 JLINK_IsHalted() -- CPU_ReadMem(2 bytes @ 0x20000000)  returns TRUE (0005ms, 0302ms total)
T1588 000:786 JLINK_ReadReg(R15)  returns 0x20000000 (0000ms, 0297ms total)
T1588 000:786 JLINK_ClrBPEx(BPHandle = 0x00000005)  returns 0x00 (0000ms, 0297ms total)
T1588 000:786 JLINK_ReadReg(R0)  returns 0x00000000 (0000ms, 0297ms total)
T1588 000:786 JLINK_WriteMem(0x20000180, 0x0400 Bytes, ...) -- Data:  88 06 00 20 29 02 00 08 31 02 00 08 33 02 00 08 ... -- CPU_WriteMem(1024 bytes @ 0x20000180)  returns 0x400 (0011ms, 0308ms total)
T1588 000:797 JLINK_WriteReg(R0, 0x08000000)  returns 0x00 (0000ms, 0308ms total)
T1588 000:797 JLINK_WriteReg(R1, 0x00000400)  returns 0x00 (0000ms, 0308ms total)
T1588 000:797 JLINK_WriteReg(R2, 0x20000180)  returns 0x00 (0000ms, 0308ms total)
T1588 000:797 JLINK_WriteReg(R3, 0x00000000)  returns 0x00 (0000ms, 0308ms total)
T1588 000:797 JLINK_WriteReg(R4, 0x00000000)  returns 0x00 (0000ms, 0308ms total)
T1588 000:797 JLINK_WriteReg(R5, 0x00000000)  returns 0x00 (0000ms, 0308ms total)
T1588 000:797 JLINK_WriteReg(R6, 0x00000000)  returns 0x00 (0000ms, 0308ms total)
T1588 000:797 JLINK_WriteReg(R7, 0x00000000)  returns 0x00 (0000ms, 0308ms total)
T1588 000:797 JLINK_WriteReg(R8, 0x00000000)  returns 0x00 (0000ms, 0308ms total)
T1588 000:797 JLINK_WriteReg(R9, 0x2000017C)  returns 0x00 (0000ms, 0308ms total)
T1588 000:797 JLINK_WriteReg(R10, 0x00000000)  returns 0x00 (0000ms, 0308ms total)
T1588 000:798 JLINK_WriteReg(R11, 0x00000000)  returns 0x00 (0000ms, 0308ms total)
T1588 000:798 JLINK_WriteReg(R12, 0x00000000)  returns 0x00 (0000ms, 0308ms total)
T1588 000:798 JLINK_WriteReg(R13, 0x20000800)  returns 0x00 (0000ms, 0308ms total)
T1588 000:798 JLINK_WriteReg(R14, 0x20000001)  returns 0x00 (0000ms, 0308ms total)
T1588 000:798 JLINK_WriteReg(R15, 0x20000108)  returns 0x00 (0000ms, 0308ms total)
T1588 000:798 JLINK_WriteReg(XPSR, 0x01000000)  returns 0x00 (0000ms, 0308ms total)
T1588 000:798 JLINK_WriteReg(MSP, 0x20000800)  returns 0x00 (0000ms, 0308ms total)
T1588 000:798 JLINK_WriteReg(PSP, 0x20000800)  returns 0x00 (0000ms, 0308ms total)
T1588 000:798 JLINK_WriteReg(CFBP, 0x00000000)  returns 0x00 (0000ms, 0308ms total)
T1588 000:798 JLINK_SetBPEx(Addr = 0x20000000, Type = 0xFFFFFFF2)  returns 0x00000006 (0000ms, 0308ms total)
T1588 000:798 JLINK_Go() (0002ms, 0310ms total)
T1588 000:800 JLINK_IsHalted()  returns FALSE (0001ms, 0311ms total)
T1588 000:810 JLINK_IsHalted() -- CPU_ReadMem(2 bytes @ 0x20000000)  returns TRUE (0005ms, 0315ms total)
T1588 000:815 JLINK_ReadReg(R15)  returns 0x20000000 (0000ms, 0310ms total)
T1588 000:815 JLINK_ClrBPEx(BPHandle = 0x00000006)  returns 0x00 (0000ms, 0310ms total)
T1588 000:815 JLINK_ReadReg(R0)  returns 0x00000000 (0000ms, 0310ms total)
T1588 000:815 JLINK_WriteMem(0x20000180, 0x0400 Bytes, ...) -- Data:  36 1D 36 68 C6 F3 88 16 05 FB 06 F2 0E 4D 2D 1D ... -- CPU_WriteMem(1024 bytes @ 0x20000180)  returns 0x400 (0012ms, 0322ms total)
T1588 000:827 JLINK_WriteReg(R0, 0x08000400)  returns 0x00 (0000ms, 0322ms total)
T1588 000:827 JLINK_WriteReg(R1, 0x00000400)  returns 0x00 (0000ms, 0322ms total)
T1588 000:827 JLINK_WriteReg(R2, 0x20000180)  returns 0x00 (0000ms, 0322ms total)
T1588 000:827 JLINK_WriteReg(R3, 0x00000000)  returns 0x00 (0000ms, 0322ms total)
T1588 000:827 JLINK_WriteReg(R4, 0x00000000)  returns 0x00 (0000ms, 0322ms total)
T1588 000:827 JLINK_WriteReg(R5, 0x00000000)  returns 0x00 (0000ms, 0322ms total)
T1588 000:827 JLINK_WriteReg(R6, 0x00000000)  returns 0x00 (0000ms, 0322ms total)
T1588 000:827 JLINK_WriteReg(R7, 0x00000000)  returns 0x00 (0000ms, 0322ms total)
T1588 000:827 JLINK_WriteReg(R8, 0x00000000)  returns 0x00 (0000ms, 0322ms total)
T1588 000:827 JLINK_WriteReg(R9, 0x2000017C)  returns 0x00 (0000ms, 0322ms total)
T1588 000:827 JLINK_WriteReg(R10, 0x00000000)  returns 0x00 (0000ms, 0322ms total)
T1588 000:827 JLINK_WriteReg(R11, 0x00000000)  returns 0x00 (0000ms, 0322ms total)
T1588 000:827 JLINK_WriteReg(R12, 0x00000000)  returns 0x00 (0000ms, 0322ms total)
T1588 000:827 JLINK_WriteReg(R13, 0x20000800)  returns 0x00 (0000ms, 0322ms total)
T1588 000:827 JLINK_WriteReg(R14, 0x20000001)  returns 0x00 (0000ms, 0322ms total)
T1588 000:827 JLINK_WriteReg(R15, 0x20000108)  returns 0x00 (0000ms, 0322ms total)
T1588 000:827 JLINK_WriteReg(XPSR, 0x01000000)  returns 0x00 (0000ms, 0322ms total)
T1588 000:827 JLINK_WriteReg(MSP, 0x20000800)  returns 0x00 (0000ms, 0322ms total)
T1588 000:827 JLINK_WriteReg(PSP, 0x20000800)  returns 0x00 (0000ms, 0322ms total)
T1588 000:827 JLINK_WriteReg(CFBP, 0x00000000)  returns 0x00 (0000ms, 0322ms total)
T1588 000:827 JLINK_SetBPEx(Addr = 0x20000000, Type = 0xFFFFFFF2)  returns 0x00000007 (0000ms, 0322ms total)
T1588 000:827 JLINK_Go() (0002ms, 0324ms total)
T1588 000:830 JLINK_IsHalted()  returns FALSE (0001ms, 0326ms total)
T1588 000:834 JLINK_IsHalted() -- CPU_ReadMem(2 bytes @ 0x20000000)  returns TRUE (0005ms, 0330ms total)
T1588 000:839 JLINK_ReadReg(R15)  returns 0x20000000 (0000ms, 0325ms total)
T1588 000:839 JLINK_ClrBPEx(BPHandle = 0x00000007)  returns 0x00 (0000ms, 0325ms total)
T1588 000:839 JLINK_ReadReg(R0)  returns 0x00000000 (0000ms, 0325ms total)
T1588 000:839 JLINK_WriteMem(0x20000180, 0x0400 Bytes, ...) -- Data:  02 43 35 4B 30 33 1A 60 06 E0 33 4A 30 32 12 68 ... -- CPU_WriteMem(1024 bytes @ 0x20000180)  returns 0x400 (0012ms, 0337ms total)
T1588 000:851 JLINK_WriteReg(R0, 0x08000800)  returns 0x00 (0000ms, 0337ms total)
T1588 000:851 JLINK_WriteReg(R1, 0x00000400)  returns 0x00 (0000ms, 0337ms total)
T1588 000:851 JLINK_WriteReg(R2, 0x20000180)  returns 0x00 (0000ms, 0337ms total)
T1588 000:851 JLINK_WriteReg(R3, 0x00000000)  returns 0x00 (0000ms, 0337ms total)
T1588 000:851 JLINK_WriteReg(R4, 0x00000000)  returns 0x00 (0000ms, 0337ms total)
T1588 000:851 JLINK_WriteReg(R5, 0x00000000)  returns 0x00 (0000ms, 0337ms total)
T1588 000:851 JLINK_WriteReg(R6, 0x00000000)  returns 0x00 (0000ms, 0337ms total)
T1588 000:851 JLINK_WriteReg(R7, 0x00000000)  returns 0x00 (0000ms, 0337ms total)
T1588 000:851 JLINK_WriteReg(R8, 0x00000000)  returns 0x00 (0000ms, 0337ms total)
T1588 000:851 JLINK_WriteReg(R9, 0x2000017C)  returns 0x00 (0000ms, 0337ms total)
T1588 000:851 JLINK_WriteReg(R10, 0x00000000)  returns 0x00 (0000ms, 0337ms total)
T1588 000:851 JLINK_WriteReg(R11, 0x00000000)  returns 0x00 (0000ms, 0337ms total)
T1588 000:851 JLINK_WriteReg(R12, 0x00000000)  returns 0x00 (0000ms, 0337ms total)
T1588 000:851 JLINK_WriteReg(R13, 0x20000800)  returns 0x00 (0000ms, 0337ms total)
T1588 000:851 JLINK_WriteReg(R14, 0x20000001)  returns 0x00 (0000ms, 0337ms total)
T1588 000:851 JLINK_WriteReg(R15, 0x20000108)  returns 0x00 (0000ms, 0337ms total)
T1588 000:851 JLINK_WriteReg(XPSR, 0x01000000)  returns 0x00 (0000ms, 0337ms total)
T1588 000:851 JLINK_WriteReg(MSP, 0x20000800)  returns 0x00 (0000ms, 0337ms total)
T1588 000:851 JLINK_WriteReg(PSP, 0x20000800)  returns 0x00 (0000ms, 0337ms total)
T1588 000:851 JLINK_WriteReg(CFBP, 0x00000000)  returns 0x00 (0000ms, 0337ms total)
T1588 000:851 JLINK_SetBPEx(Addr = 0x20000000, Type = 0xFFFFFFF2)  returns 0x00000008 (0000ms, 0337ms total)
T1588 000:851 JLINK_Go() (0002ms, 0339ms total)
T1588 000:854 JLINK_IsHalted()  returns FALSE (0001ms, 0341ms total)
T1588 000:856 JLINK_IsHalted()  returns FALSE (0001ms, 0341ms total)
T1588 000:858 JLINK_IsHalted() -- CPU_ReadMem(2 bytes @ 0x20000000)  returns TRUE (0005ms, 0345ms total)
T1588 000:863 JLINK_ReadReg(R15)  returns 0x20000000 (0000ms, 0340ms total)
T1588 000:863 JLINK_ClrBPEx(BPHandle = 0x00000008)  returns 0x00 (0000ms, 0340ms total)
T1588 000:863 JLINK_ReadReg(R0)  returns 0x00000000 (0000ms, 0340ms total)
T1588 000:863 JLINK_WriteMem(0x20000180, 0x0400 Bytes, ...) -- Data:  00 9A C2 61 C1 61 00 9A C2 61 C2 69 00 92 C2 69 ... -- CPU_WriteMem(1024 bytes @ 0x20000180)  returns 0x400 (0012ms, 0352ms total)
T1588 000:875 JLINK_WriteReg(R0, 0x08000C00)  returns 0x00 (0000ms, 0352ms total)
T1588 000:875 JLINK_WriteReg(R1, 0x00000400)  returns 0x00 (0000ms, 0352ms total)
T1588 000:875 JLINK_WriteReg(R2, 0x20000180)  returns 0x00 (0000ms, 0352ms total)
T1588 000:875 JLINK_WriteReg(R3, 0x00000000)  returns 0x00 (0000ms, 0352ms total)
T1588 000:875 JLINK_WriteReg(R4, 0x00000000)  returns 0x00 (0000ms, 0352ms total)
T1588 000:875 JLINK_WriteReg(R5, 0x00000000)  returns 0x00 (0000ms, 0352ms total)
T1588 000:875 JLINK_WriteReg(R6, 0x00000000)  returns 0x00 (0000ms, 0352ms total)
T1588 000:875 JLINK_WriteReg(R7, 0x00000000)  returns 0x00 (0000ms, 0352ms total)
T1588 000:875 JLINK_WriteReg(R8, 0x00000000)  returns 0x00 (0000ms, 0352ms total)
T1588 000:875 JLINK_WriteReg(R9, 0x2000017C)  returns 0x00 (0000ms, 0352ms total)
T1588 000:875 JLINK_WriteReg(R10, 0x00000000)  returns 0x00 (0000ms, 0352ms total)
T1588 000:875 JLINK_WriteReg(R11, 0x00000000)  returns 0x00 (0000ms, 0352ms total)
T1588 000:875 JLINK_WriteReg(R12, 0x00000000)  returns 0x00 (0000ms, 0352ms total)
T1588 000:875 JLINK_WriteReg(R13, 0x20000800)  returns 0x00 (0000ms, 0352ms total)
T1588 000:875 JLINK_WriteReg(R14, 0x20000001)  returns 0x00 (0000ms, 0352ms total)
T1588 000:875 JLINK_WriteReg(R15, 0x20000108)  returns 0x00 (0000ms, 0352ms total)
T1588 000:875 JLINK_WriteReg(XPSR, 0x01000000)  returns 0x00 (0000ms, 0352ms total)
T1588 000:875 JLINK_WriteReg(MSP, 0x20000800)  returns 0x00 (0000ms, 0352ms total)
T1588 000:875 JLINK_WriteReg(PSP, 0x20000800)  returns 0x00 (0000ms, 0352ms total)
T1588 000:875 JLINK_WriteReg(CFBP, 0x00000000)  returns 0x00 (0000ms, 0352ms total)
T1588 000:875 JLINK_SetBPEx(Addr = 0x20000000, Type = 0xFFFFFFF2)  returns 0x00000009 (0000ms, 0352ms total)
T1588 000:875 JLINK_Go() (0003ms, 0355ms total)
T1588 000:878 JLINK_IsHalted()  returns FALSE (0001ms, 0356ms total)
T1588 000:881 JLINK_IsHalted()  returns FALSE (0001ms, 0356ms total)
T1588 000:883 JLINK_IsHalted() -- CPU_ReadMem(2 bytes @ 0x20000000)  returns TRUE (0005ms, 0360ms total)
T1588 000:888 JLINK_ReadReg(R15)  returns 0x20000000 (0000ms, 0355ms total)
T1588 000:888 JLINK_ClrBPEx(BPHandle = 0x00000009)  returns 0x00 (0000ms, 0355ms total)
T1588 000:888 JLINK_ReadReg(R0)  returns 0x00000000 (0000ms, 0355ms total)
T1588 000:888 JLINK_WriteMem(0x20000180, 0x0400 Bytes, ...) -- Data:  C1 F3 42 14 01 F0 1F 06 01 27 07 FA 06 F5 01 2C ... -- CPU_WriteMem(1024 bytes @ 0x20000180)  returns 0x400 (0012ms, 0367ms total)
T1588 000:900 JLINK_WriteReg(R0, 0x08001000)  returns 0x00 (0000ms, 0367ms total)
T1588 000:900 JLINK_WriteReg(R1, 0x00000360)  returns 0x00 (0000ms, 0367ms total)
T1588 000:900 JLINK_WriteReg(R2, 0x20000180)  returns 0x00 (0000ms, 0367ms total)
T1588 000:900 JLINK_WriteReg(R3, 0x00000000)  returns 0x00 (0000ms, 0367ms total)
T1588 000:900 JLINK_WriteReg(R4, 0x00000000)  returns 0x00 (0000ms, 0367ms total)
T1588 000:900 JLINK_WriteReg(R5, 0x00000000)  returns 0x00 (0000ms, 0367ms total)
T1588 000:900 JLINK_WriteReg(R6, 0x00000000)  returns 0x00 (0000ms, 0367ms total)
T1588 000:900 JLINK_WriteReg(R7, 0x00000000)  returns 0x00 (0000ms, 0367ms total)
T1588 000:900 JLINK_WriteReg(R8, 0x00000000)  returns 0x00 (0000ms, 0367ms total)
T1588 000:900 JLINK_WriteReg(R9, 0x2000017C)  returns 0x00 (0000ms, 0367ms total)
T1588 000:900 JLINK_WriteReg(R10, 0x00000000)  returns 0x00 (0000ms, 0367ms total)
T1588 000:900 JLINK_WriteReg(R11, 0x00000000)  returns 0x00 (0000ms, 0367ms total)
T1588 000:900 JLINK_WriteReg(R12, 0x00000000)  returns 0x00 (0000ms, 0367ms total)
T1588 000:900 JLINK_WriteReg(R13, 0x20000800)  returns 0x00 (0000ms, 0367ms total)
T1588 000:900 JLINK_WriteReg(R14, 0x20000001)  returns 0x00 (0000ms, 0367ms total)
T1588 000:900 JLINK_WriteReg(R15, 0x20000108)  returns 0x00 (0000ms, 0367ms total)
T1588 000:900 JLINK_WriteReg(XPSR, 0x01000000)  returns 0x00 (0000ms, 0367ms total)
T1588 000:900 JLINK_WriteReg(MSP, 0x20000800)  returns 0x00 (0000ms, 0367ms total)
T1588 000:900 JLINK_WriteReg(PSP, 0x20000800)  returns 0x00 (0000ms, 0367ms total)
T1588 000:900 JLINK_WriteReg(CFBP, 0x00000000)  returns 0x00 (0000ms, 0367ms total)
T1588 000:900 JLINK_SetBPEx(Addr = 0x20000000, Type = 0xFFFFFFF2)  returns 0x0000000A (0000ms, 0367ms total)
T1588 000:900 JLINK_Go() (0003ms, 0370ms total)
T1588 000:903 JLINK_IsHalted()  returns FALSE (0001ms, 0371ms total)
T1588 000:907 JLINK_IsHalted() -- CPU_ReadMem(2 bytes @ 0x20000000)  returns TRUE (0005ms, 0375ms total)
T1588 000:912 JLINK_ReadReg(R15)  returns 0x20000000 (0000ms, 0370ms total)
T1588 000:912 JLINK_ClrBPEx(BPHandle = 0x0000000A)  returns 0x00 (0000ms, 0370ms total)
T1588 000:912 JLINK_ReadReg(R0)  returns 0x00000000 (0000ms, 0370ms total)
T1588 000:912 JLINK_WriteReg(R0, 0x00000002)  returns 0x00 (0000ms, 0370ms total)
T1588 000:912 JLINK_WriteReg(R1, 0x00000360)  returns 0x00 (0000ms, 0370ms total)
T1588 000:912 JLINK_WriteReg(R2, 0x20000180)  returns 0x00 (0000ms, 0370ms total)
T1588 000:912 JLINK_WriteReg(R3, 0x00000000)  returns 0x00 (0000ms, 0370ms total)
T1588 000:912 JLINK_WriteReg(R4, 0x00000000)  returns 0x00 (0000ms, 0370ms total)
T1588 000:912 JLINK_WriteReg(R5, 0x00000000)  returns 0x00 (0000ms, 0370ms total)
T1588 000:912 JLINK_WriteReg(R6, 0x00000000)  returns 0x00 (0000ms, 0370ms total)
T1588 000:912 JLINK_WriteReg(R7, 0x00000000)  returns 0x00 (0000ms, 0370ms total)
T1588 000:912 JLINK_WriteReg(R8, 0x00000000)  returns 0x00 (0000ms, 0370ms total)
T1588 000:912 JLINK_WriteReg(R9, 0x2000017C)  returns 0x00 (0000ms, 0370ms total)
T1588 000:912 JLINK_WriteReg(R10, 0x00000000)  returns 0x00 (0000ms, 0370ms total)
T1588 000:912 JLINK_WriteReg(R11, 0x00000000)  returns 0x00 (0000ms, 0370ms total)
T1588 000:912 JLINK_WriteReg(R12, 0x00000000)  returns 0x00 (0000ms, 0370ms total)
T1588 000:912 JLINK_WriteReg(R13, 0x20000800)  returns 0x00 (0000ms, 0370ms total)
T1588 000:912 JLINK_WriteReg(R14, 0x20000001)  returns 0x00 (0000ms, 0370ms total)
T1588 000:912 JLINK_WriteReg(R15, 0x20000082)  returns 0x00 (0000ms, 0370ms total)
T1588 000:912 JLINK_WriteReg(XPSR, 0x01000000)  returns 0x00 (0000ms, 0370ms total)
T1588 000:912 JLINK_WriteReg(MSP, 0x20000800)  returns 0x00 (0000ms, 0370ms total)
T1588 000:912 JLINK_WriteReg(PSP, 0x20000800)  returns 0x00 (0000ms, 0370ms total)
T1588 000:912 JLINK_WriteReg(CFBP, 0x00000000)  returns 0x00 (0000ms, 0370ms total)
T1588 000:912 JLINK_SetBPEx(Addr = 0x20000000, Type = 0xFFFFFFF2)  returns 0x0000000B (0000ms, 0370ms total)
T1588 000:912 JLINK_Go() (0003ms, 0373ms total)
T1588 000:915 JLINK_IsHalted() -- CPU_ReadMem(2 bytes @ 0x20000000)  returns TRUE (0005ms, 0378ms total)
T1588 000:920 JLINK_ReadReg(R15)  returns 0x20000000 (0000ms, 0373ms total)
T1588 000:920 JLINK_ClrBPEx(BPHandle = 0x0000000B)  returns 0x00 (0000ms, 0373ms total)
T1588 000:920 JLINK_ReadReg(R0)  returns 0x00000000 (0000ms, 0373ms total)
T1588 000:973 JLINK_WriteMem(0x20000000, 0x0180 Bytes, ...) -- Data:  00 BE 0A E0 0D 78 2D 06 68 40 08 24 40 00 00 D3 ... -- CPU_WriteMem(384 bytes @ 0x20000000)  returns 0x180 (0005ms, 0378ms total)
T1588 000:978 JLINK_WriteReg(R0, 0x08000000)  returns 0x00 (0000ms, 0378ms total)
T1588 000:978 JLINK_WriteReg(R1, 0x007A1200)  returns 0x00 (0000ms, 0378ms total)
T1588 000:978 JLINK_WriteReg(R2, 0x00000003)  returns 0x00 (0000ms, 0378ms total)
T1588 000:978 JLINK_WriteReg(R3, 0x00000000)  returns 0x00 (0000ms, 0378ms total)
T1588 000:978 JLINK_WriteReg(R4, 0x00000000)  returns 0x00 (0000ms, 0378ms total)
T1588 000:978 JLINK_WriteReg(R5, 0x00000000)  returns 0x00 (0000ms, 0378ms total)
T1588 000:978 JLINK_WriteReg(R6, 0x00000000)  returns 0x00 (0000ms, 0378ms total)
T1588 000:978 JLINK_WriteReg(R7, 0x00000000)  returns 0x00 (0000ms, 0378ms total)
T1588 000:978 JLINK_WriteReg(R8, 0x00000000)  returns 0x00 (0000ms, 0378ms total)
T1588 000:978 JLINK_WriteReg(R9, 0x2000017C)  returns 0x00 (0000ms, 0378ms total)
T1588 000:978 JLINK_WriteReg(R10, 0x00000000)  returns 0x00 (0000ms, 0378ms total)
T1588 000:978 JLINK_WriteReg(R11, 0x00000000)  returns 0x00 (0000ms, 0378ms total)
T1588 000:978 JLINK_WriteReg(R12, 0x00000000)  returns 0x00 (0000ms, 0378ms total)
T1588 000:978 JLINK_WriteReg(R13, 0x20000800)  returns 0x00 (0000ms, 0378ms total)
T1588 000:978 JLINK_WriteReg(R14, 0x20000001)  returns 0x00 (0000ms, 0378ms total)
T1588 000:978 JLINK_WriteReg(R15, 0x20000054)  returns 0x00 (0000ms, 0378ms total)
T1588 000:978 JLINK_WriteReg(XPSR, 0x01000000)  returns 0x00 (0000ms, 0378ms total)
T1588 000:978 JLINK_WriteReg(MSP, 0x20000800)  returns 0x00 (0000ms, 0378ms total)
T1588 000:978 JLINK_WriteReg(PSP, 0x20000800)  returns 0x00 (0000ms, 0378ms total)
T1588 000:978 JLINK_WriteReg(CFBP, 0x00000000)  returns 0x00 (0000ms, 0378ms total)
T1588 000:978 JLINK_SetBPEx(Addr = 0x20000000, Type = 0xFFFFFFF2) -- CPU_ReadMem(2 bytes @ 0x20000000)  returns 0x0000000C (0002ms, 0380ms total)
T1588 000:980 JLINK_Go() -- CPU_WriteMem(2 bytes @ 0x20000000) (0003ms, 0383ms total)
T1588 000:983 JLINK_IsHalted() -- CPU_ReadMem(2 bytes @ 0x20000000)  returns TRUE (0005ms, 0388ms total)
T1588 000:988 JLINK_ReadReg(R15)  returns 0x20000000 (0000ms, 0383ms total)
T1588 000:988 JLINK_ClrBPEx(BPHandle = 0x0000000C)  returns 0x00 (0000ms, 0383ms total)
T1588 000:988 JLINK_ReadReg(R0)  returns 0x00000000 (0000ms, 0383ms total)
T1588 000:988 JLINK_WriteReg(R0, 0xFFFFFFFF)  returns 0x00 (0000ms, 0383ms total)
T1588 000:988 JLINK_WriteReg(R1, 0x08000000)  returns 0x00 (0000ms, 0383ms total)
T1588 000:988 JLINK_WriteReg(R2, 0x00001360)  returns 0x00 (0000ms, 0383ms total)
T1588 000:988 JLINK_WriteReg(R3, 0x04C11DB7)  returns 0x00 (0000ms, 0383ms total)
T1588 000:988 JLINK_WriteReg(R4, 0x00000000)  returns 0x00 (0000ms, 0383ms total)
T1588 000:988 JLINK_WriteReg(R5, 0x00000000)  returns 0x00 (0000ms, 0383ms total)
T1588 000:988 JLINK_WriteReg(R6, 0x00000000)  returns 0x00 (0000ms, 0383ms total)
T1588 000:988 JLINK_WriteReg(R7, 0x00000000)  returns 0x00 (0000ms, 0383ms total)
T1588 000:988 JLINK_WriteReg(R8, 0x00000000)  returns 0x00 (0000ms, 0383ms total)
T1588 000:988 JLINK_WriteReg(R9, 0x2000017C)  returns 0x00 (0000ms, 0383ms total)
T1588 000:988 JLINK_WriteReg(R10, 0x00000000)  returns 0x00 (0000ms, 0383ms total)
T1588 000:988 JLINK_WriteReg(R11, 0x00000000)  returns 0x00 (0000ms, 0383ms total)
T1588 000:988 JLINK_WriteReg(R12, 0x00000000)  returns 0x00 (0000ms, 0383ms total)
T1588 000:988 JLINK_WriteReg(R13, 0x20000800)  returns 0x00 (0000ms, 0383ms total)
T1588 000:988 JLINK_WriteReg(R14, 0x20000001)  returns 0x00 (0000ms, 0383ms total)
T1588 000:988 JLINK_WriteReg(R15, 0x20000002)  returns 0x00 (0000ms, 0383ms total)
T1588 000:988 JLINK_WriteReg(XPSR, 0x01000000)  returns 0x00 (0000ms, 0383ms total)
T1588 000:988 JLINK_WriteReg(MSP, 0x20000800)  returns 0x00 (0000ms, 0383ms total)
T1588 000:988 JLINK_WriteReg(PSP, 0x20000800)  returns 0x00 (0000ms, 0383ms total)
T1588 000:988 JLINK_WriteReg(CFBP, 0x00000000)  returns 0x00 (0000ms, 0383ms total)
T1588 000:988 JLINK_SetBPEx(Addr = 0x20000000, Type = 0xFFFFFFF2)  returns 0x0000000D (0000ms, 0383ms total)
T1588 000:988 JLINK_Go() (0003ms, 0386ms total)
T1588 000:991 JLINK_IsHalted()  returns FALSE (0001ms, 0387ms total)
T1588 000:997 JLINK_IsHalted()  returns FALSE (0001ms, 0387ms total)
T1588 000:999 JLINK_IsHalted()  returns FALSE (0001ms, 0387ms total)
T1588 001:001 JLINK_IsHalted()  returns FALSE (0001ms, 0387ms total)
T1588 001:005 JLINK_IsHalted()  returns FALSE (0001ms, 0387ms total)
T1588 001:007 JLINK_IsHalted()  returns FALSE (0001ms, 0387ms total)
T1588 001:009 JLINK_IsHalted()  returns FALSE (0001ms, 0387ms total)
T1588 001:011 JLINK_IsHalted()  returns FALSE (0001ms, 0387ms total)
T1588 001:013 JLINK_IsHalted()  returns FALSE (0001ms, 0387ms total)
T1588 001:015 JLINK_IsHalted()  returns FALSE (0001ms, 0387ms total)
T1588 001:017 JLINK_IsHalted()  returns FALSE (0001ms, 0387ms total)
T1588 001:019 JLINK_IsHalted()  returns FALSE (0001ms, 0387ms total)
T1588 001:021 JLINK_IsHalted() -- CPU_ReadMem(2 bytes @ 0x20000000)  returns TRUE (0005ms, 0391ms total)
T1588 001:026 JLINK_ReadReg(R15)  returns 0x20000000 (0000ms, 0386ms total)
T1588 001:026 JLINK_ClrBPEx(BPHandle = 0x0000000D)  returns 0x00 (0000ms, 0386ms total)
T1588 001:026 JLINK_ReadReg(R0)  returns 0x91EB2B03 (0000ms, 0386ms total)
T1588 001:027 JLINK_WriteReg(R0, 0x00000003)  returns 0x00 (0000ms, 0386ms total)
T1588 001:027 JLINK_WriteReg(R1, 0x08000000)  returns 0x00 (0000ms, 0386ms total)
T1588 001:027 JLINK_WriteReg(R2, 0x00001360)  returns 0x00 (0000ms, 0386ms total)
T1588 001:027 JLINK_WriteReg(R3, 0x04C11DB7)  returns 0x00 (0000ms, 0386ms total)
T1588 001:027 JLINK_WriteReg(R4, 0x00000000)  returns 0x00 (0000ms, 0386ms total)
T1588 001:027 JLINK_WriteReg(R5, 0x00000000)  returns 0x00 (0000ms, 0386ms total)
T1588 001:027 JLINK_WriteReg(R6, 0x00000000)  returns 0x00 (0000ms, 0386ms total)
T1588 001:027 JLINK_WriteReg(R7, 0x00000000)  returns 0x00 (0000ms, 0386ms total)
T1588 001:027 JLINK_WriteReg(R8, 0x00000000)  returns 0x00 (0000ms, 0386ms total)
T1588 001:027 JLINK_WriteReg(R9, 0x2000017C)  returns 0x00 (0000ms, 0386ms total)
T1588 001:027 JLINK_WriteReg(R10, 0x00000000)  returns 0x00 (0000ms, 0386ms total)
T1588 001:027 JLINK_WriteReg(R11, 0x00000000)  returns 0x00 (0000ms, 0386ms total)
T1588 001:027 JLINK_WriteReg(R12, 0x00000000)  returns 0x00 (0000ms, 0386ms total)
T1588 001:027 JLINK_WriteReg(R13, 0x20000800)  returns 0x00 (0000ms, 0386ms total)
T1588 001:027 JLINK_WriteReg(R14, 0x20000001)  returns 0x00 (0000ms, 0386ms total)
T1588 001:027 JLINK_WriteReg(R15, 0x20000082)  returns 0x00 (0000ms, 0386ms total)
T1588 001:027 JLINK_WriteReg(XPSR, 0x01000000)  returns 0x00 (0000ms, 0386ms total)
T1588 001:027 JLINK_WriteReg(MSP, 0x20000800)  returns 0x00 (0000ms, 0386ms total)
